VERSION
8

COMMSETTINGS
0
COM13
COM2
19200
0
0
4
0
0

COMMDISPLAY
0

VERSATAP
0

CHANNELALIAS



SEND
0

01 01 00 00 00 64 3D E1
0
5

SEND
1

01 03 0B DC 00 02 07 D5
0
5

SEND
2

01 03 0B DB 00 02 B6 14
0
5

SEND
3

01 03 0B E5 00 04 57 DA
0
5

SEND
4

01 03 0B E5 00 02 D7 D8
0
5

SEND
5

01 03 0B E5 00 06 D6 1B
0
5

SEND
6

01 03 0B E5 00 08 57 DF
0
5

SEND
7

01 03 0B B7 00 0C F7 CD
0
5

